Title: * Z:\Users\richard\work\projects\LTspice\rvb\AC_bandpass.asc
Date: Thu Jan 19 21:12:30 2012
Plotname: AC Analysis
Flags: complex forward log
No. Variables: 36
No. Points:          501
Offset:   0.0000000000000000e+000
Command: Linear Technology Corporation LTspice IV
Variables:
	0	frequency	frequency
	1	V(vout1)	voltage
	2	V(n001)	voltage
	3	V(vin)	voltage
	4	V(n008)	voltage
	5	V(n009)	voltage
	6	V(vout2)	voltage
	7	V(n002)	voltage
	8	V(n005)	voltage
	9	V(vout3)	voltage
	10	V(n003)	voltage
	11	V(n006)	voltage
	12	V(n004)	voltage
	13	V(n007)	voltage
	14	V(vout4)	voltage
	15	I(C8)	device_current
	16	I(C6)	device_current
	17	I(C7)	device_current
	18	I(C5)	device_current
	19	I(C4)	device_current
	20	I(C3)	device_current
	21	I(C1)	device_current
	22	I(C2)	device_current
	23	I(L4)	device_current
	24	I(L5)	device_current
	25	I(L3)	device_current
	26	I(L1)	device_current
	27	I(R9)	device_current
	28	I(R7)	device_current
	29	I(R6)	device_current
	30	I(R5)	device_current
	31	I(R4)	device_current
	32	I(R3)	device_current
	33	I(R1)	device_current
	34	I(R2)	device_current
	35	I(V1)	device_current
Values:
0		1.000000000000000e+001,0.000000000000000e+000
	2.992071222767247e-004,9.982293450082188e-003
	4.986884912888063e-004,1.996757605849762e-002
	1.000000000000000e+000,0.000000000000000e+000
	1.000099913866140e+000,-3.977327569452960e-006
	9.995301683391388e-001,-2.386572362854218e-002
	5.666529874191409e-004,1.271135718401971e-002
	1.000099840829396e+000,-4.769182780840764e-006
	9.994926275517291e-001,-1.908262710725957e-002
	2.856535169087809e-004,9.860202551484835e-003
	1.000099878894267e+000,-4.485216508923889e-006
	9.995470011196050e-001,-1.908874821938280e-002
	1.000049989756030e+000,-1.273230289967203e-006
	9.999587944203943e-001,-9.550064780437583e-003
	4.999793972101971e-001,-4.775032390218792e-003
	7.599611302955579e-006,7.957326291789681e-004
	7.599611302955579e-006,7.957326291789681e-004
	4.607314788851305e-005,1.590355250239490e-003
	5.060110647226982e-005,1.589821493706561e-003
	-2.023051695512279e-005,9.018457040972516e-007
	3.798303513337483e-005,1.590783086731515e-003
	1.994813690120816e-007,9.985282608415436e-006
	-9.972575326464317e-008,2.989158333243238e-009
	7.599611302910511e-006,7.957326291799711e-004
	4.607314788846070e-005,1.590355250241005e-003
	5.060110647231812e-005,1.589821493701773e-003
	3.798303513337542e-005,1.590783086731856e-003
	7.599611302958978e-006,7.957326291789680e-004
	4.607314788851458e-005,1.590355250239490e-003
	4.607314788851305e-005,1.590355250239490e-003
	5.060110647225891e-005,1.589821493706560e-003
	7.083162342739261e-005,1.588919648002463e-003
	3.798303513338208e-005,1.590783086731515e-003
	1.994813690120815e-007,9.985282608415436e-006
	2.992071222767247e-007,9.982293450082188e-006
	-1.424563821659785e-004,-5.576677742464398e-003
1		1.023292992280754e+001,0.000000000000000e+000
	3.132980108354630e-004,1.021442678934527e-002
	5.221742655537441e-004,2.043205641416570e-002
	9.999999999999999e-001,0.000000000000000e+000
	1.000104620344545e+000,-4.184985046172192e-006
	9.995080339377449e-001,-2.442120203633960e-002
	5.933214274022663e-004,1.300643667049902e-002
	1.000104540892602e+000,-5.033325101861871e-006
	9.994687465120179e-001,-1.952628374692941e-002
	2.991069485936725e-004,1.008952489898907e-002
	1.000104582400192e+000,-4.729149078744332e-006
	9.995256657254950e-001,-1.953284185679952e-002
	1.000052345598965e+000,-1.325914215453278e-006
	9.999568523200054e-001,-9.772518414775600e-003
	4.999784261600027e-001,-4.886259207387800e-003
	7.957773246623620e-006,8.142660417133456e-004
	7.957773246623620e-006,8.142660417133456e-004
	4.824305622478589e-005,1.627342725643398e-003
	5.298286504863909e-005,1.626770868485629e-003
	-2.118231337664421e-005,9.662846732509760e-007
	3.977242711998226e-005,1.627801136752895e-003
	2.088762547182811e-007,1.021762962482044e-005
	-1.044217561171820e-007,3.202835475171679e-009
	7.957773246707448e-006,8.142660417102108e-004
	4.824305622476431e-005,1.627342725642023e-003
	5.298286504863812e-005,1.626770868486685e-003
	3.977242712001419e-005,1.627801136753293e-003
	7.957773246627015e-006,8.142660417133456e-004
	4.824305622476895e-005,1.627342725643398e-003
	4.824305622478589e-005,1.627342725643398e-003
	5.298286504865080e-005,1.626770868485629e-003
	7.416517842528329e-005,1.625804583812378e-003
	3.977242711998841e-005,1.627801136752895e-003
	2.088762547182811e-007,1.021762962482044e-005
	3.132980108354630e-007,1.021442678934527e-005
	-1.491649978947462e-004,-5.706398402212543e-003
2		1.047128548050899e+001,0.000000000000000e+000
	3.280519886955764e-004,1.045193976213212e-002
	5.467652812202341e-004,2.090731130607092e-002
	9.999999999999999e-001,0.000000000000000e+000
	1.000109548408986e+000,-4.405700782925472e-006
	9.994848571536554e-001,-2.498958876711710e-002
	6.212431386966851e-004,1.330831762329253e-002
	1.000109461953296e+000,-5.314547395333240e-006
	9.994437429500048e-001,-1.998021488125602e-002
	3.131935529020087e-004,1.032416374996369e-002
	1.000109507224453e+000,-4.988728331744781e-006
	9.995033261543200e-001,-1.998724114761631e-002
	1.000054812459547e+000,-1.381472173270920e-006
	9.999548186776185e-001,-1.000015394937645e-002
	4.999774093388092e-001,-5.000076974688223e-003
	8.332815160676441e-006,8.332310397669312e-004
	8.332815160676443e-006,8.332310397669313e-004
	5.051508917774334e-005,1.665187701607047e-003
	5.547658360756915e-005,1.664575027821724e-003
	-2.217880872951647e-005,1.035324910157157e-006
	4.164608368867908e-005,1.665678871088945e-003
	2.187132925246578e-007,1.045537154393880e-005
	-1.093386961709188e-007,3.431781806684882e-009
	8.332815160686458e-006,8.332310397644318e-004
	5.051508917774948e-005,1.665187701604459e-003
	5.547658360759291e-005,1.664575027820815e-003
	4.164608368863923e-005,1.665678871088810e-003
	8.332815160670229e-006,8.332310397669314e-004
	5.051508917774950e-005,1.665187701607047e-003
	5.051508917774334e-005,1.665187701607047e-003
	5.547658360757768e-005,1.664575027821724e-003
	7.765539233708563e-005,1.663539702911567e-003
	4.164608368868450e-005,1.665678871088945e-003
	2.187132925246577e-007,1.045537154393880e-005
	3.280519886955764e-007,1.045193976213212e-005
	-1.561892849271384e-004,-5.839128011823291e-003
3		1.071519305237606e+001,0.000000000000000e+000
	3.435002105217833e-004,1.069495571656560e-002
	5.725134716521945e-004,2.139358852093411e-002
	1.000000000000000e+000,3.469446951953614e-018
	1.000114708480945e+000,-4.640366390681883e-006
	9.994605889360496e-001,-2.557118231975806e-002
	6.504768421419912e-004,1.361715334894451e-002
	1.000114614377704e+000,-5.614026704965636e-006
	9.994175642474521e-001,-2.044465558529053e-002
	3.279430866774399e-004,1.056424114930191e-002
	1.000114663763627e+000,-5.265030276355165e-006
	9.994799352087674e-001,-2.045218338376392e-002
	1.000057395568928e+000,-1.440088893514199e-006
	9.999526891776768e-001,-1.023309210689196e-002
	4.999763445888384e-001,-5.116546053445977e-003
	8.725532604276463e-006,8.526376681665366e-004
	8.725532604276463e-006,8.526376681665366e-004
	5.289404623829675e-005,1.703909862790631e-003
	5.808751085434577e-005,1.703253463215464e-003
	-2.322209441340315e-005,1.109294597400161e-006
	4.360796965966421e-005,1.704436130224492e-003
	2.290132611304112e-007,1.069863280436851e-005
	-1.144869493913721e-007,3.677087802899446e-009
	8.725532604340521e-006,8.526376681647343e-004
	5.289404623829471e-005,1.703909862791690e-003
	5.808751085433277e-005,1.703253463218241e-003
	4.360796965964258e-005,1.704436130225706e-003
	8.725532604271964e-006,8.526376681665367e-004
	5.289404623828875e-005,1.703909862790630e-003
	5.289404623829675e-005,1.703909862790631e-003
	5.808751085434327e-005,1.703253463215464e-003
	8.130960526774890e-005,1.702144168618064e-003
	4.360796965966104e-005,1.704436130224492e-003
	2.290132611304112e-007,1.069863280436851e-005
	3.435002105217833e-007,1.069495571656560e-005
	-1.635440726176774e-004,-5.974935757199874e-003
4		1.096478196143185e+001,0.000000000000000e+000
	3.596752900294123e-004,1.094360073416788e-002
	5.994732028242432e-004,2.189114139007378e-002
	1.000000000000000e+000,3.469446951953614e-018
	1.000120111470975e+000,-4.889936196936923e-006
	9.994351779296568e-001,-2.616628799077763e-002
	6.810839929265926e-004,1.393310036078842e-002
	1.000120009015878e+000,-5.933022937625390e-006
	9.993901553336650e-001,-2.091984610747756e-002
	3.433867011018224e-004,1.080988185683509e-002
	1.000120062901007e+000,-5.559206737238906e-006
	9.994554434795190e-001,-2.092791118770838e-002
	1.000060100404709e+000,-1.501961833405563e-006
	9.999504593011114e-001,-1.047145642344368e-002
	4.999752296505556e-001,-5.235728211721840e-003
	9.136758633090902e-006,8.724962051341893e-004
	9.136758633090906e-006,8.724962051341895e-004
	5.538495179061651e-005,1.743529331747595e-003
	6.082114018440617e-005,1.742826090378328e-003
	-2.431435893141789e-005,1.188545279776007e-006
	4.566223608789221e-005,1.744093203638713e-003
	2.397979127948308e-007,1.094754065590590e-005
	-1.198773772345815e-007,3.939921738024909e-009
	9.136758633109288e-006,8.724962051349011e-004
	5.538495179059507e-005,1.743529331749249e-003
	6.082114018446029e-005,1.742826090376504e-003
	4.566223608784773e-005,1.744093203640543e-003
	9.136758633093711e-006,8.724962051341896e-004
	5.538495179062870e-005,1.743529331747595e-003
	5.538495179061652e-005,1.743529331747595e-003
	6.082114018440832e-005,1.742826090378328e-003
	8.513549911582407e-005,1.741637545098552e-003
	4.566223608789925e-005,1.744093203638713e-003
	2.397979127948309e-007,1.094754065590590e-005
	3.596752900294123e-007,1.094360073416788e-005
	-1.712448846088455e-004,-6.113892371555353e-003
5		1.122018454301963e+001,0.000000000000000e+000
	3.766113678598918e-004,1.119800368358408e-002
	6.277013865302817e-004,2.240022890239441e-002
	1.000000000000000e+000,0.000000000000000e+000
	1.000125768801554e+000,-5.155431698730326e-006
	9.994085703668515e-001,-2.677521802158044e-002
	7.131289062786067e-004,1.425631842783968e-002
	1.000125657224046e+000,-6.272884724704830e-006
	9.993614585725430e-001,-2.140603196874661e-002
	3.595570066327992e-004,1.106121340146905e-002
	1.000125716029227e+000,-5.872490734418895e-006
	9.994297992421953e-001,-2.141467262260999e-002
	1.000062932702538e+000,-1.567302076312810e-006
	9.999481243157370e-001,-1.071537331426256e-002
	4.999740621578685e-001,-5.357686657131281e-003
	9.567365566732562e-006,8.928171676821873e-004
	9.567365566732562e-006,8.928171676821873e-004
	5.799306558593534e-005,1.784066677656298e-003
	6.368322095860312e-005,1.783313257001825e-003
	-2.545789232622272e-005,1.273453521864747e-006
	4.781322898017118e-005,1.784670839325447e-003
	2.510900186703899e-007,1.120222521881033e-005
	-1.255213491895019e-007,4.221535226245533e-009
	9.567365566764833e-006,8.928171676810307e-004
	5.799306558595451e-005,1.784066677654641e-003
	6.368322095859378e-005,1.783313257001516e-003
	4.781322898014328e-005,1.784670839326136e-003
	9.567365566740907e-006,8.928171676821874e-004
	5.799306558593176e-005,1.784066677656298e-003
	5.799306558593535e-005,1.784066677656298e-003
	6.368322095860282e-005,1.783313257001826e-003
	8.914111328482584e-005,1.782039803479961e-003
	4.781322898016101e-005,1.784670839325447e-003
	2.510900186703899e-007,1.120222521881033e-005
	3.766113678598918e-007,1.119800368358408e-005
	-1.793079711101265e-004,-6.256070166884343e-003
6		1.148153621496883e+001,0.000000000000000e+000
	3.943441825698457e-004,1.145829627485206e-002
	6.572575987893835e-004,2.292111581886017e-002
	1.000000000000000e+000,-3.469446951953614e-018
	1.000131692430985e+000,-5.437946332372338e-006
	9.993807099547253e-001,-2.739829174835897e-002
	7.466788887764826e-004,1.458697062301117e-002
	1.000131570887972e+000,-6.635055697043827e-006
	9.993314136445485e-001,-2.190346406240427e-002
	3.764881409272471e-004,1.131836613593513e-002
	1.000131635073924e+000,-6.206202244070370e-006
	9.994029483495485e-001,-2.191272130405400e-002
	1.000065898468270e+000,-1.636335294751337e-006
	9.999456792661957e-001,-1.096497214086498e-002
	4.999728396330979e-001,-5.482486070432488e-003
	1.001826683952492e-005,9.136113171308519e-004
	1.001826683952492e-005,9.136113171308519e-004
	6.072389369794309e-005,1.825542925150827e-003
	6.667977028529126e-005,1.824735750558936e-003
	-2.665509081176908e-005,1.364422682539101e-006
	5.006549841731948e-005,1.826190253468440e-003
	2.629134162195377e-007,1.146281954400811e-005
	-1.314307663503079e-007,4.523269156051714e-009
	1.001826683948842e-005,9.136113171307063e-004
	6.072389369798342e-005,1.825542925149285e-003
	6.667977028529967e-005,1.824735750556354e-003
	5.006549841734803e-005,1.826190253468182e-003
	1.001826683952323e-005,9.136113171308520e-004
	6.072389369794299e-005,1.825542925150827e-003
	6.072389369794308e-005,1.825542925150828e-003
	6.667977028528467e-005,1.824735750558936e-003
	9.333486109706033e-005,1.823371327876397e-003
	5.006549841732137e-005,1.826190253468440e-003
	2.629134162195378e-007,1.146281954400811e-005
	3.943441825698457e-007,1.145829627485206e-005
	-1.877503426563343e-004,-6.401543065846838e-003
7		1.174897554939530e+001,0.000000000000000e+000
	4.129111448723716e-004,1.172461311418124e-002
	6.882042036807089e-004,2.345407278840830e-002
	1.000000000000000e+000,0.000000000000000e+000
	1.000137894878414e+000,-5.738650582421194e-006
	9.993515377569153e-001,-2.803583575463876e-002
	7.818043755152542e-004,1.492522337050968e-002
	1.000137762447367e+000,-7.021081202306450e-006
	9.992999574233977e-001,-2.241239875474175e-002
	3.942158398841751e-004,1.158147329212513e-002
	1.000137832518479e+000,-6.561754367976487e-006
	9.993748341187034e-001,-2.242231651331983e-002
	1.000069003990685e+000,-1.709302782041539e-006
	9.999431189634226e-001,-1.122038527980161e-002
	4.999715594817113e-001,-5.610192639900807e-003
	1.049041893852122e-005,9.348896647516310e-004
	1.049041893852122e-005,9.348896647516310e-004
	6.358319998131856e-005,1.867979563245988e-003
	6.981708533078320e-005,1.867114806128287e-003
	-2.790846160862358e-005,1.461884814577238e-006
	5.242380809991809e-005,1.868673140270422e-003
	2.752930588083374e-007,1.172945967422706e-005
	-1.376180860640343e-007,4.846560045816330e-009
	1.049041893851405e-005,9.348896647540037e-004
	6.358319998136044e-005,1.867979563244352e-003
	6.981708533077245e-005,1.867114806128198e-003
	5.242380809993825e-005,1.868673140270794e-003
	1.049041893853390e-005,9.348896647516310e-004
	6.358319998132447e-005,1.867979563245988e-003
	6.358319998131856e-005,1.867979563245988e-003
	6.981708533077927e-005,1.867114806128287e-003
	9.772554693940677e-005,1.865652921313710e-003
	5.242380809993285e-005,1.868673140270422e-003
	2.752930588083373e-007,1.172945967422706e-005
	4.129111448723716e-007,1.172461311418124e-005
	-1.965898054094306e-004,-6.550386634062378e-003
8		1.202264434617413e+001,0.000000000000000e+000
	4.323514152748094e-004,1.199709175919924e-002
	7.206064828487999e-004,2.399937646524884e-002
	1.000000000000000e+000,0.000000000000000e+000
	1.000144389249995e+000,-6.058797454034856e-006
	9.993209920699394e-001,-2.868818402647149e-002
	8.185790733726695e-004,1.527124649225912e-002
	1.000144244921401e+000,-7.432615495800085e-006
	9.992670238472347e-001,-2.293309798626177e-002
	4.127775119462442e-004,1.185067103697458e-002
	1.000144321429891e+000,-6.940659940547073e-006
	9.993453972132208e-001,-2.294372331214942e-002
	1.000072255854811e+000,-1.786462557436946e-006
	9.999404379736162e-001,-1.148174819301634e-002
	4.999702189868081e-001,-5.740874096508169e-003
	1.098482343289257e-005,9.566634775382418e-004
	1.098482343289257e-005,9.566634775382420e-004
	6.657701805584584e-005,1.911398554350739e-003
	7.310175618051177e-005,1.910472114230498e-003
	-2.922062799107192e-005,1.566302698108089e-006
	5.489314533701337e-005,1.912141681934497e-003
	2.882550675739905e-007,1.200228470604960e-005
	-1.440963477008187e-007,5.192946850357198e-009
	1.098482343288461e-005,9.566634775375769e-004
	6.657701805582765e-005,1.911398554352718e-003
	7.310175618049011e-005,1.910472114231912e-003
	5.489314533705820e-005,1.912141681934588e-003
	1.098482343287836e-005,9.566634775382418e-004
	6.657701805585595e-005,1.911398554350739e-003
	6.657701805584584e-005,1.911398554350739e-003
	7.310175618051769e-005,1.910472114230498e-003
	1.023223841715837e-004,1.908905811532390e-003
	5.489314533701310e-005,1.912141681934497e-003
	2.882550675739906e-007,1.200228470604960e-005
	4.323514152748094e-007,1.199709175919924e-005
	-2.058449980738286e-004,-6.702678112759486e-003
9		1.230268770812381e+001,0.000000000000000e+000
	4.527059852632696e-004,1.227587277462028e-002
	7.545327709306202e-004,2.455730962749086e-002
	9.999999999999999e-001,0.000000000000000e+000
	1.000151189266265e+000,-6.399728334348375e-006
	9.992890082937951e-001,-2.935567811027387e-002
	8.570801106279897e-004,1.562521325318396e-002
	1.000151031935359e+000,-7.871429437719331e-006
	9.992325437840706e-001,-2.346582937342024e-002
	4.322123158049091e-004,1.212609852885532e-002
	1.000151115485827e+000,-7.344538604197106e-006
	9.993145755197528e-001,-2.347721265896933e-002
	1.000075660955875e+000,-1.868090550066065e-006
	9.999376306066876e-001,-1.174919949985319e-002
	4.999688153033438e-001,-5.874599749926596e-003
	1.150252909899430e-005,9.789442841085939e-004
	1.150252909899430e-005,9.789442841085939e-004
	6.971166383950146e-005,1.955822343363761e-003
	7.654067927404921e-005,1.954829828665210e-003
	-3.059433455444953e-005,1.678172017215451e-006
	5.747873149798065e-005,1.956618558795968e-003
	3.018267856673505e-007,1.228143685287058e-005
	-1.508791995959190e-007,5.564078250307286e-009
	1.150252909904957e-005,9.789442841061995e-004
	6.971166383953428e-005,1.955822343362531e-003
	7.654067927406428e-005,1.954829828665592e-003
	5.747873149804237e-005,1.956618558793280e-003
	1.150252909898342e-005,9.789442841085937e-004
	6.971166383949271e-005,1.955822343363761e-003
	6.971166383950146e-005,1.955822343363761e-003
	7.654067927403974e-005,1.954829828665210e-003
	1.071350138284987e-004,1.953151656647995e-003
	5.747873149798780e-005,1.956618558795968e-003
	3.018267856673506e-007,1.228143685287058e-005
	4.527059852632696e-007,1.227587277462028e-005
	-2.155354304962942e-004,-6.858496451792816e-003
10		1.258925411794167e+001,0.000000000000000e+000
	4.740177621903284e-004,1.256109978828437e-002
	7.900545971660216e-004,2.512816129702707e-002
	9.999999999999999e-001,6.938893903907228e-018
	1.000158309290787e+000,-6.762879270656717e-006
	9.992555187965572e-001,-3.003866727330480e-002
	8.973881931948499e-004,1.598730040517223e-002
	1.000158137748493e+000,-8.339418732220338e-006
	9.991964448912373e-001,-2.401086631076653e-002
	4.525612416601820e-004,1.240789797443296e-002
	1.000158229002908e+000,-7.775124386247622e-006
	9.992823040190499e-001,-2.402306152651455e-002
	1.000079226513910e+000,-1.954481867195642e-006
	9.999346909041621e-001,-1.202288105075045e-002
	4.999673454520811e-001,-6.011440525375222e-003
	1.204463414562316e-005,1.001743880740271e-003
	1.204463414562316e-005,1.001743880740271e-003
	7.299374865486806e-005,2.001273866844025e-003
	8.014107143795672e-005,2.000210574336192e-003
	-3.203245271139950e-005,1.798023689664485e-006
	6.018603294864617e-005,2.002126959602276e-003
	3.160368349756933e-007,1.256706150874270e-005
	-1.579809272146351e-007,5.961720458337556e-009
	1.204463414562975e-005,1.001743880739804e-003
	7.299374865492287e-005,2.001273866843442e-003
	8.014107143797110e-005,2.000210574336813e-003
	6.018603294871460e-005,2.002126959598536e-003
	1.204463414562299e-005,1.001743880740271e-003
	7.299374865486300e-005,2.001273866844025e-003
