Title: * TEST_NMOS
Input deck file name: C:\cygwin\home\rbooth\work\1860bd18ba\ENXXXX\TEST_NMOS.in
Date: Tue Jan 03 14:46:28 2012
Plotname: DC Analysis, 27 deg C
Temperature: 27
Sweepvar: vd; vg:  0.0000e+000,  1.0000e+000,  2.0000e+000,  3.0000e+000,  4.0000e+000,  5.0000e+000, 
Sweepmode: 0
Flags: real padded
No. Variables: 10
No. Points: 1506      
Source: SmartSpice MultiCore,Platform:0
Version: 4.1.36.C
Variables:	0	vd	voltage
	1	i(vb)	current
	2	i(vd)	current
	3	i(vg)	current
	4	i(vs)	current
	5	v(0)	voltage
	6	v(b)	voltage
	7	v(d)	voltage
	8	v(g)	voltage
	9	v(s)	voltage
Values:
 0	0.000000000000000e+000
	0.000000000000000e+000
	0.000000000000000e+000
	0.000000000000000e+000
	0.000000000000000e+000
	0.000000000000000e+000
	0.000000000000000e+000
	0.000000000000000e+000
	0.000000000000000e+000
	0.000000000000000e+000

 1	2.000000000000000e-002
	2.000012453085387e-014
	-9.206382528210408e-014
	0.000000000000000e+000
	7.206370075125020e-014
	0.000000000000000e+000
	0.000000000000000e+000
	2.000000000000000e-002
	0.000000000000000e+000
	0.000000000000000e+000

 2	4.000000000000000e-002
	4.000018219703970e-014
	-1.624249302121361e-013
	0.000000000000000e+000
	1.224247480150965e-013
	0.000000000000000e+000
	0.000000000000000e+000
	4.000000000000000e-002
	0.000000000000000e+000
	0.000000000000000e+000

 3	6.000000000000000e-002
	6.000020890037375e-014
	-2.187934301440205e-013
	0.000000000000000e+000
	1.587932212436468e-013
	0.000000000000000e+000
	0.000000000000000e+000
	6.000000000000000e-002
	0.000000000000000e+000
	0.000000000000000e+000

 4	8.000000000000000e-002
	8.000022126581877e-014
	-2.676778772223599e-013
	0.000000000000000e+000
	1.876776559565411e-013
	0.000000000000000e+000
	0.000000000000000e+000
	8.000000000000000e-002
	0.000000000000000e+000
	0.000000000000000e+000

 5	1.000000000000000e-001
	1.000002269918540e-013
	-3.129447100022878e-013
	0.000000000000000e+000
	2.129444830104338e-013
	0.000000000000000e+000
	0.000000000000000e+000
	1.000000000000000e-001
	0.000000000000000e+000
	0.000000000000000e+000

 6	1.200000000000000e-001
	1.200002296433946e-013
	-3.564617349767187e-013
	0.000000000000000e+000
	2.364615053333242e-013
	0.000000000000000e+000
	0.000000000000000e+000
	1.200000000000000e-001
	0.000000000000000e+000
	0.000000000000000e+000

 7	1.400000000000000e-001
	1.400002308712367e-013
	-3.990818169209394e-013
	0.000000000000000e+000
	2.590815860497028e-013
	0.000000000000000e+000
	0.000000000000000e+000
	1.400000000000000e-001
	0.000000000000000e+000
	0.000000000000000e+000

 8	1.600000000000000e-001
	1.600002314398104e-013
	-4.412068640950878e-013
	0.000000000000000e+000
	2.812066326552773e-013
	0.000000000000000e+000
	0.000000000000000e+000
	1.600000000000000e-001
	0.000000000000000e+000
	0.000000000000000e+000

 9	1.800000000000000e-001
	1.800002317030985e-013
	-4.830388454127300e-013
	0.000000000000000e+000
	3.030386137096317e-013
	0.000000000000000e+000
	0.000000000000000e+000
	1.800000000000000e-001
	0.000000000000000e+000
	0.000000000000000e+000

 10	2.000000000000000e-001
	2.000002318250186e-013
	-5.246865507605445e-013
	0.000000000000000e+000
	3.246863189355260e-013
	0.000000000000000e+000
	0.000000000000000e+000
	2.000000000000000e-001
	0.000000000000000e+000
	0.000000000000000e+000

 11	2.200000000000000e-001
	2.200002318814759e-013
	-5.662124708789021e-013
	0.000000000000000e+000
	3.462122389974262e-013
	0.000000000000000e+000
	0.000000000000000e+000
	2.200000000000000e-001
	0.000000000000000e+000
	0.000000000000000e+000

 12	2.400000000000000e-001
	2.400002319076193e-013
	-6.076545847332929e-013
	0.000000000000000e+000
	3.676543528256736e-013
	0.000000000000000e+000
	0.000000000000000e+000
	2.400000000000000e-001
	0.000000000000000e+000
	0.000000000000000e+000

 13	2.600000000000000e-001
	2.600002319197255e-013
	-6.490371221788480e-013
	0.000000000000000e+000
	3.890368902591224e-013
	0.000000000000000e+000
	0.000000000000000e+000
	2.600000000000000e-001
	0.000000000000000e+000
	0.000000000000000e+000

 14	2.800000000000000e-001
	2.800002319253316e-013
	-6.903761971075123e-013
	0.000000000000000e+000
	4.103759651821806e-013
	0.000000000000000e+000
	0.000000000000000e+000
	2.800000000000000e-001
	0.000000000000000e+000
	0.000000000000000e+000

 15	3.000000000000000e-001
	3.000002319279277e-013
	-7.316829142844056e-013
	0.000000000000000e+000
	4.316826823564779e-013
	0.000000000000000e+000
	0.000000000000000e+000
	3.000000000000000e-001
	0.000000000000000e+000
	0.000000000000000e+000

 16	3.200000000000000e-001
	3.200002319291298e-013
	-7.729651644922169e-013
	0.000000000000000e+000
	4.529649325630871e-013
	0.000000000000000e+000
	0.000000000000000e+000
	3.200000000000000e-001
	0.000000000000000e+000
	0.000000000000000e+000

 17	3.400000000000000e-001
	3.400002319296864e-013
	-8.142287053117121e-013
	0.000000000000000e+000
	4.742284733820257e-013
	0.000000000000000e+000
	0.000000000000000e+000
	3.400000000000000e-001
	0.000000000000000e+000
	0.000000000000000e+000

 18	3.600000000000000e-001
	3.600002319299443e-013
	-8.554778358675065e-013
	0.000000000000000e+000
	4.954776039375621e-013
	0.000000000000000e+000
	0.000000000000000e+000
	3.600000000000000e-001
	0.000000000000000e+000
	0.000000000000000e+000

 19	3.800000000000001e-001
	3.800002319300637e-013
	-8.967158318266530e-013
	0.000000000000000e+000
	5.167155998965892e-013
	0.000000000000000e+000
	0.000000000000000e+000
	3.800000000000001e-001
	0.000000000000000e+000
	0.000000000000000e+000

 20	4.000000000000001e-001
	4.000002319301190e-013
	-9.379452339330485e-013
	0.000000000000000e+000
	5.379450020029296e-013
	0.000000000000000e+000
	0.000000000000000e+000
	4.000000000000001e-001
	0.000000000000000e+000
	0.000000000000000e+000

 21	4.200000000000001e-001
	4.200002319301446e-013
	-9.791680443119742e-013
	0.000000000000000e+000
	5.591678123818294e-013
	0.000000000000000e+000
	0.000000000000000e+000
	4.200000000000001e-001
	0.000000000000000e+000
	0.000000000000000e+000

 22	4.400000000000001e-001
	4.400002319301566e-013
	-1.020385863085539e-012
	0.000000000000000e+000
	5.803856311553824e-013
	0.000000000000000e+000
	0.000000000000000e+000
	4.400000000000001e-001
	0.000000000000000e+000
	0.000000000000000e+000

 23	4.600000000000001e-001
	4.600002319301623e-013
	-1.061599985406449e-012
	0.000000000000000e+000
	6.015997534762864e-013
	0.000000000000000e+000
	0.000000000000000e+000
	4.600000000000001e-001
	0.000000000000000e+000
	0.000000000000000e+000

 24	4.800000000000002e-001
	4.800002319301648e-013
	-1.102811471648423e-012
	0.000000000000000e+000
	6.228112397182578e-013
	0.000000000000000e+000
	0.000000000000000e+000
	4.800000000000002e-001
	0.000000000000000e+000
	0.000000000000000e+000

 25	5.000000000000001e-001
	5.000002319301659e-013
	-1.144021199034418e-012
	0.000000000000000e+000
	6.440209671042521e-013
	0.000000000000000e+000
	0.000000000000000e+000
	5.000000000000001e-001
	0.000000000000000e+000
	0.000000000000000e+000

 26	5.200000000000001e-001
	5.200002319301665e-013
	-1.185229900182054e-012
	0.000000000000000e+000
	6.652296682518875e-013
	0.000000000000000e+000
	0.000000000000000e+000
	5.200000000000001e-001
	0.000000000000000e+000
	0.000000000000000e+000

 27	5.400000000000002e-001
	5.400002319301668e-013
	-1.226438192283794e-012
	0.000000000000000e+000
	6.864379603536270e-013
	0.000000000000000e+000
	0.000000000000000e+000
	5.400000000000002e-001
	0.000000000000000e+000
	0.000000000000000e+000

 28	5.600000000000002e-001
	5.600002319301670e-013
	-1.267646599470871e-012
	0.000000000000000e+000
	7.076463675407042e-013
	0.000000000000000e+000
	0.000000000000000e+000
	5.600000000000002e-001
	0.000000000000000e+000
	0.000000000000000e+000

 29	5.800000000000002e-001
	5.800002319301669e-013
	-1.308855570157664e-012
	0.000000000000000e+000
	7.288553382274970e-013
	0.000000000000000e+000
	0.000000000000000e+000
	5.800000000000002e-001
	0.000000000000000e+000
	0.000000000000000e+000

 30	6.000000000000002e-001
	6.000002319301671e-013
	-1.350065490629827e-012
	0.000000000000000e+000
	7.500652586996595e-013
	0.000000000000000e+000
	0.000000000000000e+000
	6.000000000000002e-001
	0.000000000000000e+000
	0.000000000000000e+000

 31	6.200000000000002e-001
	6.200002319301673e-013
	-1.391276695797778e-012
	0.000000000000000e+000
	7.712764638676106e-013
	0.000000000000000e+000
	0.000000000000000e+000
	6.200000000000002e-001
	0.000000000000000e+000
	0.000000000000000e+000

 32	6.400000000000002e-001
	6.400002319301674e-013
	-1.432489477784088e-012
	0.000000000000000e+000
	7.924892458539208e-013
	0.000000000000000e+000
	0.000000000000000e+000
	6.400000000000002e-001
	0.000000000000000e+000
	0.000000000000000e+000

 33	6.600000000000003e-001
	6.600002319301674e-013
	-1.473704092835956e-012
	0.000000000000000e+000
	8.137038609057882e-013
	0.000000000000000e+000
	0.000000000000000e+000
	6.600000000000003e-001
	0.000000000000000e+000
	0.000000000000000e+000

 34	6.800000000000003e-001
	6.800002319301674e-013
	-1.514920766935746e-012
	0.000000000000000e+000
	8.349205350055786e-013
	0.000000000000000e+000
	0.000000000000000e+000
	6.800000000000003e-001
	0.000000000000000e+000
	0.000000000000000e+000

 35	7.000000000000003e-001
	7.000002319301674e-013
	-1.556139700386637e-012
	0.000000000000000e+000
	8.561394684564691e-013
	0.000000000000000e+000
	0.000000000000000e+000
	7.000000000000003e-001
	0.000000000000000e+000
	0.000000000000000e+000

 36	7.200000000000003e-001
	7.200002319301675e-013
	-1.597361071584842e-012
	0.000000000000000e+000
	8.773608396546745e-013
	0.000000000000000e+000
	0.000000000000000e+000
	7.200000000000003e-001
	0.000000000000000e+000
	0.000000000000000e+000

 37	7.400000000000003e-001
	7.400002319301675e-013
	-1.638585040145957e-012
	0.000000000000000e+000
	8.985848082157889e-013
	0.000000000000000e+000
	0.000000000000000e+000
	7.400000000000003e-001
	0.000000000000000e+000
	0.000000000000000e+000

 38	7.600000000000003e-001
	7.600002319301678e-013
	-1.679811749506110e-012
	0.000000000000000e+000
	9.198115175759427e-013
	0.000000000000000e+000
	0.000000000000000e+000
	7.600000000000003e-001
	0.000000000000000e+000
	0.000000000000000e+000

 39	7.800000000000004e-001
	7.800002319301678e-013
	-1.721041329104140e-012
	0.000000000000000e+000
	9.410410971739724e-013
	0.000000000000000e+000
	0.000000000000000e+000
	7.800000000000004e-001
	0.000000000000000e+000
	0.000000000000000e+000

 40	8.000000000000004e-001
	8.000002319301681e-013
	-1.762273896216737e-012
	0.000000000000000e+000
	9.622736642865686e-013
	0.000000000000000e+000
	0.000000000000000e+000
	8.000000000000004e-001
	0.000000000000000e+000
	0.000000000000000e+000

 41	8.200000000000004e-001
	8.200002319301704e-013
	-1.803509557513764e-012
	0.000000000000000e+000
	9.835093255835934e-013
	0.000000000000000e+000
	0.000000000000000e+000
	8.200000000000004e-001
	0.000000000000000e+000
	0.000000000000000e+000

 42	8.400000000000004e-001
	8.400002319301755e-013
	-1.844748410376946e-012
	0.000000000000000e+000
	1.004748178446770e-012
	0.000000000000000e+000
	0.000000000000000e+000
	8.400000000000004e-001
	0.000000000000000e+000
	0.000000000000000e+000

 43	8.600000000000004e-001
	8.600002319301870e-013
	-1.885990544031184e-012
	0.000000000000000e+000
	1.025990312100997e-012
	0.000000000000000e+000
	0.000000000000000e+000
	8.600000000000004e-001
	0.000000000000000e+000
	0.000000000000000e+000

 44	8.800000000000005e-001
	8.800002319302116e-013
	-1.927236040509866e-012
	0.000000000000000e+000
	1.047235808579654e-012
	0.000000000000000e+000
	0.000000000000000e+000
	8.800000000000005e-001
	0.000000000000000e+000
	0.000000000000000e+000

 45	9.000000000000005e-001
	9.000002319302619e-013
	-1.968484975488690e-012
	0.000000000000000e+000
	1.068484743558428e-012
	0.000000000000000e+000
	0.000000000000000e+000
	9.000000000000005e-001
	0.000000000000000e+000
	0.000000000000000e+000

 46	9.200000000000005e-001
	9.200002319303618e-013
	-2.009737419005251e-012
	0.000000000000000e+000
	1.089737187074890e-012
	0.000000000000000e+000
	0.000000000000000e+000
	9.200000000000005e-001
	0.000000000000000e+000
	0.000000000000000e+000

 47	9.400000000000005e-001
	9.400002319305535e-013
	-2.050993436083938e-012
	0.000000000000000e+000
	1.110993204153385e-012
	0.000000000000000e+000
	0.000000000000000e+000
	9.400000000000005e-001
	0.000000000000000e+000
	0.000000000000000e+000

 48	9.600000000000005e-001
	9.600002319309123e-013
	-2.092253087278679e-012
	0.000000000000000e+000
	1.132252855347767e-012
	0.000000000000000e+000
	0.000000000000000e+000
	9.600000000000005e-001
	0.000000000000000e+000
	0.000000000000000e+000

 49	9.800000000000005e-001
	9.800002319315651e-013
	-2.133516429147295e-012
	0.000000000000000e+000
	1.153516197215730e-012
	0.000000000000000e+000
	0.000000000000000e+000
	9.800000000000005e-001
	0.000000000000000e+000
	0.000000000000000e+000

 50	1.000000000000000e+000
	1.000000231932722e-012
	-2.174783514667218e-012
	0.000000000000000e+000
	1.174783282734496e-012
	0.000000000000000e+000
	0.000000000000000e+000
	1.000000000000000e+000
	0.000000000000000e+000
	0.000000000000000e+000

 51	1.020000000000001e+000
	1.020000231934726e-012
	-2.216054393600722e-012
	0.000000000000000e+000
	1.196054161665996e-012
	0.000000000000000e+000
	0.000000000000000e+000
	1.020000000000001e+000
	0.000000000000000e+000
	0.000000000000000e+000

 52	1.040000000000001e+000
	1.040000231938118e-012
	-2.257329112815190e-012
	0.000000000000000e+000
	1.217328880877072e-012
	0.000000000000000e+000
	0.000000000000000e+000
	1.040000000000001e+000
	0.000000000000000e+000
	0.000000000000000e+000

 53	1.060000000000001e+000
	1.060000231943740e-012
	-2.298607716568558e-012
	0.000000000000000e+000
	1.238607484624817e-012
	0.000000000000000e+000
	0.000000000000000e+000
	1.060000000000001e+000
	0.000000000000000e+000
	0.000000000000000e+000

 54	1.080000000000001e+000
	1.080000231952877e-012
	-2.339890246759931e-012
	0.000000000000000e+000
	1.259890014807054e-012
	0.000000000000000e+000
	0.000000000000000e+000
	1.080000000000001e+000
	0.000000000000000e+000
	0.000000000000000e+000

 55	1.100000000000001e+000
	1.100000231967450e-012
	-2.381176743152605e-012
	0.000000000000000e+000
	1.281176511185156e-012
	0.000000000000000e+000
	0.000000000000000e+000
	1.100000000000001e+000
	0.000000000000000e+000
	0.000000000000000e+000

 56	1.120000000000001e+000
	1.120000231990286e-012
	-2.422467243574094e-012
	0.000000000000000e+000
	1.302467011583809e-012
	0.000000000000000e+000
	0.000000000000000e+000
	1.120000000000001e+000
	0.000000000000000e+000
	0.000000000000000e+000

 57	1.140000000000001e+000
	1.140000232025480e-012
	-2.463761784092367e-012
	0.000000000000000e+000
	1.323761552066887e-012
	0.000000000000000e+000
	0.000000000000000e+000
	1.140000000000001e+000
	0.000000000000000e+000
	0.000000000000000e+000

 58	1.160000000000001e+000
	1.160000232078874e-012
	-2.505060399175210e-012
	0.000000000000000e+000
	1.345060167096336e-012
	0.000000000000000e+000
	0.000000000000000e+000
	1.160000000000001e+000
	0.000000000000000e+000
	0.000000000000000e+000

 59	1.180000000000001e+000
	1.180000232158681e-012
	-2.546363121832950e-012
	0.000000000000000e+000
	1.366362889674269e-012
	0.000000000000000e+000
	0.000000000000000e+000
	1.180000000000001e+000
	0.000000000000000e+000
	0.000000000000000e+000

 60	1.200000000000001e+000
	1.200000232276292e-012
	-2.587669983745267e-012
	0.000000000000000e+000
	1.387669751468975e-012
	0.000000000000000e+000
	0.000000000000000e+000
	1.200000000000001e+000
	0.000000000000000e+000
	0.000000000000000e+000

 61	1.220000000000001e+000
	1.220000232447313e-012
	-2.628981015378230e-012
	0.000000000000000e+000
	1.408980782930916e-012
	0.000000000000000e+000
	0.000000000000000e+000
	1.220000000000001e+000
	0.000000000000000e+000
	0.000000000000000e+000

 62	1.240000000000001e+000
	1.240000232692861e-012
	-2.670296246087770e-012
	0.000000000000000e+000
	1.430296013394910e-012
	0.000000000000000e+000
	0.000000000000000e+000
	1.240000000000001e+000
	0.000000000000000e+000
	0.000000000000000e+000

 63	1.260000000000001e+000
	1.260000233041183e-012
	-2.711615704214389e-012
	0.000000000000000e+000
	1.451615471173206e-012
	0.000000000000000e+000
	0.000000000000000e+000
	1.260000000000001e+000
	0.000000000000000e+000
	0.000000000000000e+000

 64	1.280000000000001e+000
	1.280000233529662e-012
	-2.752939417169306e-012
	0.000000000000000e+000
	1.472939183639644e-012
	0.000000000000000e+000
	0.000000000000000e+000
	1.280000000000001e+000
	0.000000000000000e+000
	0.000000000000000e+000

 65	1.300000000000001e+000
	1.300000234207261e-012
	-2.794267411514126e-012
	0.000000000000000e+000
	1.494267177306865e-012
	0.000000000000000e+000
	0.000000000000000e+000
	1.300000000000001e+000
	0.000000000000000e+000
	0.000000000000000e+000

 66	1.320000000000001e+000
	1.320000235137480e-012
	-2.835599713031685e-012
	0.000000000000000e+000
	1.515599477894205e-012
	0.000000000000000e+000
	0.000000000000000e+000
	1.320000000000001e+000
	0.000000000000000e+000
	0.000000000000000e+000

 67	1.340000000000001e+000
	1.340000236401922e-012
	-2.876936346793118e-012
	0.000000000000000e+000
	1.536936110391196e-012
	0.000000000000000e+000
	0.000000000000000e+000
	1.340000000000001e+000
	0.000000000000000e+000
	0.000000000000000e+000

 68	1.360000000000001e+000
	1.360000238104516e-012
	-2.918277337218976e-012
	0.000000000000000e+000
	1.558277099114460e-012
	0.000000000000000e+000
	0.000000000000000e+000
	1.360000000000001e+000
	0.000000000000000e+000
	0.000000000000000e+000

 69	1.380000000000001e+000
	1.380000240376524e-012
	-2.959622708137038e-012
	0.000000000000000e+000
	1.579622467760514e-012
	0.000000000000000e+000
	0.000000000000000e+000
	1.380000000000001e+000
	0.000000000000000e+000
	0.000000000000000e+000

 70	1.400000000000001e+000
	1.400000243382399e-012
	-3.000972482834464e-012
	0.000000000000000e+000
	1.600972239452064e-012
	0.000000000000000e+000
	0.000000000000000e+000
	1.400000000000001e+000
	0.000000000000000e+000
	0.000000000000000e+000

 71	1.420000000000001e+000
	1.420000247326612e-012
	-3.042326684110460e-012
	0.000000000000000e+000
	1.622326436783849e-012
	0.000000000000000e+000
	0.000000000000000e+000
	1.420000000000001e+000
	0.000000000000000e+000
	0.000000000000000e+000

 72	1.440000000000001e+000
	1.440000252461532e-012
	-3.083685334321014e-012
	0.000000000000000e+000
	1.643685081859482e-012
	0.000000000000000e+000
	0.000000000000000e+000
	1.440000000000001e+000
	0.000000000000000e+000
	0.000000000000000e+000

 73	1.460000000000001e+000
	1.460000259096494e-012
	-3.125048455427134e-012
	0.000000000000000e+000
	1.665048196330640e-012
	0.000000000000000e+000
	0.000000000000000e+000
	1.460000000000001e+000
	0.000000000000000e+000
	0.000000000000000e+000

 74	1.480000000000001e+000
	1.480000267608136e-012
	-3.166416069037040e-012
	0.000000000000000e+000
	1.686415801428903e-012
	0.000000000000000e+000
	0.000000000000000e+000
	1.480000000000001e+000
	0.000000000000000e+000
	0.000000000000000e+000

 75	1.500000000000001e+000
	1.500000278452138e-012
	-3.207788196449363e-012
	0.000000000000000e+000
	1.707787917997225e-012
	0.000000000000000e+000
	0.000000000000000e+000
